                    * c:\users\glenn\esim-workspace\p\p.cir
                    Transient Analysis  Sat Mar 12 05:42:27  2022
--------------------------------------------------------------------------------
Index   time            data            net-_m1-pad1_   net-_m1-pad3_   
--------------------------------------------------------------------------------
0	0.000000e+00	-1.00000e+01	-5.23108e-12	-5.23101e-12	
1	1.000000e-07	-9.80000e+00	1.784354e-01	1.721751e-01	
2	2.000000e-07	-9.60000e+00	3.567611e-01	3.442175e-01	
3	4.000000e-07	-9.20000e+00	7.130443e-01	6.879340e-01	
4	8.000000e-07	-8.40000e+00	1.424047e+00	1.373803e+00	
5	1.600000e-06	-6.80000e+00	2.838942e+00	2.738432e+00	
6	2.835451e-06	-4.32910e+00	4.999862e+00	4.821732e+00	
7	4.959664e-06	-8.06729e-02	8.585734e+00	8.274172e+00	
8	6.916955e-06	3.833910e+00	1.009262e+01	9.658156e+00	
9	9.007105e-06	8.014210e+00	1.009081e+01	9.525179e+00	
10	1.000000e-05	1.000000e+01	1.008765e+01	9.459750e+00	
11	1.001377e-05	1.000000e+01	1.000783e+01	9.379097e+00	
12	1.004130e-05	1.000000e+01	9.688527e+00	9.058551e+00	
13	1.005525e-05	1.000000e+01	9.688523e+00	9.058134e+00	
14	1.007005e-05	1.000000e+01	9.688520e+00	9.057693e+00	
15	1.008744e-05	1.000000e+01	9.688515e+00	9.057174e+00	
16	1.012223e-05	1.000000e+01	9.688507e+00	9.056136e+00	
17	1.019181e-05	1.000000e+01	9.688489e+00	9.054059e+00	
18	1.033096e-05	1.000000e+01	9.688454e+00	9.049904e+00	
19	1.060927e-05	1.000000e+01	9.688382e+00	9.041581e+00	
20	1.116588e-05	1.000000e+01	9.688241e+00	9.024854e+00	
21	1.227911e-05	1.000000e+01	9.687956e+00	8.990522e+00	
22	1.450558e-05	1.000000e+01	9.687374e+00	8.908016e+00	
23	1.895850e-05	1.000000e+01	9.686259e+00	8.658428e+00	
24	2.786435e-05	1.000000e+01	9.684239e+00	8.098669e+00	
25	3.786435e-05	1.000000e+01	7.685950e+00	7.595786e+00	
26	4.786435e-05	1.000000e+01	7.132290e+00	7.069838e+00	
27	5.786435e-05	1.000000e+01	6.463740e+00	6.450161e+00	
28	6.786435e-05	1.000000e+01	5.914982e+00	5.890707e+00	
29	7.786435e-05	1.000000e+01	5.323463e+00	5.311147e+00	
30	8.786435e-05	1.000000e+01	4.796175e+00	4.777894e+00	
31	9.786435e-05	1.000000e+01	4.255201e+00	4.242981e+00	
32	1.078643e-04	1.000000e+01	3.763824e+00	3.748270e+00	
33	1.178643e-04	1.000000e+01	3.275949e+00	3.263950e+00	
34	1.278643e-04	1.000000e+01	2.831027e+00	2.817443e+00	
35	1.378643e-04	1.000000e+01	2.401355e+00	2.389981e+00	
36	1.478643e-04	1.000000e+01	2.011205e+00	1.999459e+00	
37	1.578643e-04	1.000000e+01	1.644968e+00	1.634709e+00	
38	1.678643e-04	1.000000e+01	1.316827e+00	1.307018e+00	
39	1.778643e-04	1.000000e+01	1.018565e+00	1.009877e+00	
40	1.878643e-04	1.000000e+01	7.579966e-01	7.503016e-01	
41	1.978643e-04	1.000000e+01	5.313314e-01	5.245997e-01	
42	2.078643e-04	1.000000e+01	3.422776e-01	3.368681e-01	
43	2.178643e-04	1.000000e+01	1.893504e-01	1.848439e-01	
44	2.278643e-04	1.000000e+01	7.341588e-02	7.038049e-02	
45	2.378643e-04	1.000000e+01	-6.76003e-03	-8.97585e-03	
46	2.478643e-04	1.000000e+01	-5.39423e-02	-5.47976e-02	
47	2.578643e-04	1.000000e+01	-7.43369e-02	-7.48202e-02	
48	2.678643e-04	1.000000e+01	-7.98091e-02	-7.96671e-02	
49	2.778643e-04	1.000000e+01	-8.01325e-02	-8.03075e-02	
50	2.878643e-04	1.000000e+01	-8.02561e-02	-8.00764e-02	
51	2.978643e-04	1.000000e+01	-7.99502e-02	-8.01223e-02	
52	3.078643e-04	1.000000e+01	-8.00049e-02	-7.98236e-02	
53	3.178643e-04	1.000000e+01	-7.96478e-02	-7.98182e-02	
54	3.278643e-04	1.000000e+01	-7.96527e-02	-7.94698e-02	

Index   time            data            net-_m1-pad1_   net-_m1-pad3_   
--------------------------------------------------------------------------------
55	3.378643e-04	1.000000e+01	-7.92471e-02	-7.94159e-02	
56	3.478643e-04	1.000000e+01	-7.92052e-02	-7.90209e-02	
57	3.578643e-04	1.000000e+01	-7.87545e-02	-7.89217e-02	
58	3.678643e-04	1.000000e+01	-7.86694e-02	-7.84838e-02	
59	3.778643e-04	1.000000e+01	-7.81777e-02	-7.83435e-02	
60	3.878643e-04	1.000000e+01	-7.80539e-02	-7.78671e-02	
61	3.978643e-04	1.000000e+01	-7.75258e-02	-7.76904e-02	
62	4.078643e-04	1.000000e+01	-7.73682e-02	-7.71805e-02	
63	4.178643e-04	1.000000e+01	-7.68091e-02	-7.69727e-02	
64	4.278643e-04	1.000000e+01	-7.66233e-02	-7.64347e-02	
65	4.378643e-04	1.000000e+01	-7.60389e-02	-7.62016e-02	
66	4.478643e-04	1.000000e+01	-7.58308e-02	-7.56416e-02	
67	4.578643e-04	1.000000e+01	-7.52274e-02	-7.53894e-02	
68	4.678643e-04	1.000000e+01	-7.50033e-02	-7.48137e-02	
69	4.778643e-04	1.000000e+01	-7.43873e-02	-7.45488e-02	
70	4.878643e-04	1.000000e+01	-7.41538e-02	-7.39640e-02	
71	4.978643e-04	1.000000e+01	-7.35318e-02	-7.36932e-02	
72	5.078643e-04	1.000000e+01	-7.32957e-02	-7.31060e-02	
73	5.178643e-04	1.000000e+01	-7.26746e-02	-7.28359e-02	
74	5.278643e-04	1.000000e+01	-7.24425e-02	-7.22531e-02	
75	5.378643e-04	1.000000e+01	-7.18290e-02	-7.19906e-02	
76	5.478643e-04	1.000000e+01	-7.16077e-02	-7.14188e-02	
77	5.578643e-04	1.000000e+01	-7.10085e-02	-7.11705e-02	
78	5.678643e-04	1.000000e+01	-7.08045e-02	-7.06162e-02	
79	5.778643e-04	1.000000e+01	-7.02259e-02	-7.03886e-02	
80	5.878643e-04	1.000000e+01	-7.00454e-02	-6.98581e-02	
81	5.978643e-04	1.000000e+01	-6.94937e-02	-6.96572e-02	
82	6.078643e-04	1.000000e+01	-6.93426e-02	-6.91563e-02	
83	6.178643e-04	1.000000e+01	-6.88233e-02	-6.89879e-02	
84	6.278643e-04	1.000000e+01	-6.87070e-02	-6.85220e-02	
85	6.378643e-04	1.000000e+01	-6.82253e-02	-6.83911e-02	
86	6.478643e-04	1.000000e+01	-6.81487e-02	-6.79652e-02	
87	6.578643e-04	1.000000e+01	-6.77092e-02	-6.78764e-02	
88	6.678643e-04	1.000000e+01	-6.76765e-02	-6.74945e-02	
89	6.778643e-04	1.000000e+01	-6.72831e-02	-6.74518e-02	
90	6.878643e-04	1.000000e+01	-6.72979e-02	-6.71175e-02	
91	6.978643e-04	1.000000e+01	-6.69537e-02	-6.71240e-02	
92	7.078643e-04	1.000000e+01	-6.70187e-02	-6.68401e-02	
93	7.178643e-04	1.000000e+01	-6.67263e-02	-6.68982e-02	
94	7.278643e-04	1.000000e+01	-6.68435e-02	-6.66667e-02	
95	7.378643e-04	1.000000e+01	-6.66043e-02	-6.67779e-02	
96	7.478643e-04	1.000000e+01	-6.67749e-02	-6.66000e-02	
97	7.578643e-04	1.000000e+01	-6.65898e-02	-6.67651e-02	
98	7.678643e-04	1.000000e+01	-6.68141e-02	-6.66410e-02	
99	7.778643e-04	1.000000e+01	-6.66829e-02	-6.68599e-02	
100	7.878643e-04	1.000000e+01	-6.69604e-02	-6.67892e-02	
101	7.978643e-04	1.000000e+01	-6.68822e-02	-6.70609e-02	
102	8.078643e-04	1.000000e+01	-6.72116e-02	-6.70421e-02	
103	8.178643e-04	1.000000e+01	-6.71845e-02	-6.73648e-02	
104	8.278643e-04	1.000000e+01	-6.75636e-02	-6.73958e-02	
105	8.378643e-04	1.000000e+01	-6.75852e-02	-6.77670e-02	
106	8.478643e-04	1.000000e+01	-6.80109e-02	-6.78447e-02	
107	8.578643e-04	1.000000e+01	-6.80777e-02	-6.82609e-02	
108	8.678643e-04	1.000000e+01	-6.85464e-02	-6.83817e-02	
109	8.778643e-04	1.000000e+01	-6.86545e-02	-6.88389e-02	
110	8.878643e-04	1.000000e+01	-6.91618e-02	-6.89984e-02	
111	8.978643e-04	1.000000e+01	-6.93063e-02	-6.94919e-02	
112	9.078643e-04	1.000000e+01	-6.98473e-02	-6.96850e-02	

Index   time            data            net-_m1-pad1_   net-_m1-pad3_   
--------------------------------------------------------------------------------
113	9.178643e-04	1.000000e+01	-7.00230e-02	-7.02094e-02	
114	9.278643e-04	1.000000e+01	-7.05920e-02	-7.04307e-02	
115	9.378643e-04	1.000000e+01	-7.07931e-02	-7.09803e-02	
116	9.478643e-04	1.000000e+01	-7.13843e-02	-7.12237e-02	
117	9.578643e-04	1.000000e+01	-7.16046e-02	-7.17923e-02	
118	9.678643e-04	1.000000e+01	-7.22117e-02	-7.20516e-02	
119	9.778643e-04	1.000000e+01	-7.24447e-02	-7.26327e-02	
120	9.878643e-04	1.000000e+01	-7.30610e-02	-7.29012e-02	
121	9.978643e-04	1.000000e+01	-7.33001e-02	-7.34882e-02	
122	1.007864e-03	1.000000e+01	-7.39189e-02	-7.37592e-02	
123	1.017864e-03	1.000000e+01	-7.41573e-02	-7.43452e-02	
124	1.027864e-03	1.000000e+01	-7.47719e-02	-7.46121e-02	
125	1.037864e-03	1.000000e+01	-7.50028e-02	-7.51903e-02	
126	1.047864e-03	1.000000e+01	-7.56065e-02	-7.54463e-02	
127	1.057864e-03	1.000000e+01	-7.58232e-02	-7.60102e-02	
128	1.067864e-03	1.000000e+01	-7.64095e-02	-7.62488e-02	
129	1.077864e-03	1.000000e+01	-7.66057e-02	-7.67919e-02	
130	1.087864e-03	1.000000e+01	-7.71683e-02	-7.70068e-02	
131	1.097864e-03	1.000000e+01	-7.73379e-02	-7.75231e-02	
132	1.107864e-03	1.000000e+01	-7.78709e-02	-7.77085e-02	
133	1.117864e-03	1.000000e+01	-7.80082e-02	-7.81922e-02	
134	1.127864e-03	1.000000e+01	-7.85063e-02	-7.83427e-02	
135	1.137864e-03	1.000000e+01	-7.86060e-02	-7.87887e-02	
136	1.147864e-03	1.000000e+01	-7.90644e-02	-7.88995e-02	
137	1.157864e-03	1.000000e+01	-7.91221e-02	-7.93033e-02	
138	1.167864e-03	1.000000e+01	-7.95363e-02	-7.93700e-02	
139	1.177864e-03	1.000000e+01	-7.95481e-02	-7.97277e-02	
140	1.187864e-03	1.000000e+01	-7.99148e-02	-7.97469e-02	
141	1.197864e-03	1.000000e+01	-7.98774e-02	-8.00553e-02	
142	1.207864e-03	1.000000e+01	-8.01937e-02	-8.00242e-02	
143	1.217864e-03	1.000000e+01	-8.01070e-02	-8.02833e-02	
144	1.227864e-03	1.000000e+01	-8.05123e-02	-8.03507e-02	
145	1.237864e-03	1.000000e+01	-8.22619e-02	-8.25552e-02	
146	1.247864e-03	1.000000e+01	-8.84186e-02	-8.85260e-02	
147	1.257864e-03	1.000000e+01	-9.46645e-02	-9.49783e-02	
148	1.267864e-03	1.000000e+01	-9.72850e-02	-9.71285e-02	
149	1.277864e-03	1.000000e+01	-9.73285e-02	-9.74998e-02	
150	1.287864e-03	1.000000e+01	-9.74406e-02	-9.72642e-02	
151	1.297864e-03	1.000000e+01	-9.71379e-02	-9.73068e-02	
152	1.307864e-03	1.000000e+01	-9.71894e-02	-9.70113e-02	
153	1.317864e-03	1.000000e+01	-9.68355e-02	-9.70027e-02	
154	1.327864e-03	1.000000e+01	-9.68372e-02	-9.66575e-02	
155	1.337864e-03	1.000000e+01	-9.64349e-02	-9.66004e-02	
156	1.347864e-03	1.000000e+01	-9.63897e-02	-9.62086e-02	
157	1.357864e-03	1.000000e+01	-9.59423e-02	-9.61063e-02	
158	1.367864e-03	1.000000e+01	-9.58540e-02	-9.56716e-02	
159	1.377864e-03	1.000000e+01	-9.53655e-02	-9.55281e-02	
160	1.387864e-03	1.000000e+01	-9.52385e-02	-9.50549e-02	
161	1.397864e-03	1.000000e+01	-9.47136e-02	-9.48750e-02	
162	1.407864e-03	1.000000e+01	-9.45529e-02	-9.43683e-02	
163	1.417864e-03	1.000000e+01	-9.39970e-02	-9.41573e-02	
164	1.427864e-03	1.000000e+01	-9.38080e-02	-9.36226e-02	
165	1.437864e-03	1.000000e+01	-9.32268e-02	-9.33863e-02	
166	1.447864e-03	1.000000e+01	-9.30156e-02	-9.28295e-02	
167	1.457864e-03	1.000000e+01	-9.24153e-02	-9.25741e-02	
168	1.467864e-03	1.000000e+01	-9.21881e-02	-9.20017e-02	
169	1.477864e-03	1.000000e+01	-9.15752e-02	-9.17336e-02	
170	1.487864e-03	1.000000e+01	-9.13386e-02	-9.11520e-02	

Index   time            data            net-_m1-pad1_   net-_m1-pad3_   
--------------------------------------------------------------------------------
171	1.497864e-03	1.000000e+01	-9.07198e-02	-9.08780e-02	
172	1.507864e-03	1.000000e+01	-9.04805e-02	-9.02940e-02	
173	1.517864e-03	1.000000e+01	-8.98626e-02	-9.00208e-02	
174	1.527864e-03	1.000000e+01	-8.96274e-02	-8.94411e-02	
175	1.537864e-03	1.000000e+01	-8.90171e-02	-8.91755e-02	
176	1.547864e-03	1.000000e+01	-8.87927e-02	-8.86069e-02	
177	1.557864e-03	1.000000e+01	-8.81966e-02	-8.83555e-02	
178	1.567864e-03	1.000000e+01	-8.79894e-02	-8.78044e-02	
179	1.577864e-03	1.000000e+01	-8.74141e-02	-8.75736e-02	
180	1.587864e-03	1.000000e+01	-8.72305e-02	-8.70463e-02	
181	1.597864e-03	1.000000e+01	-8.66819e-02	-8.68423e-02	
182	1.607864e-03	1.000000e+01	-8.65276e-02	-8.63445e-02	
183	1.617864e-03	1.000000e+01	-8.60115e-02	-8.61729e-02	
184	1.627864e-03	1.000000e+01	-8.58921e-02	-8.57103e-02	
185	1.637864e-03	1.000000e+01	-8.54136e-02	-8.55762e-02	
186	1.647864e-03	1.000000e+01	-8.53338e-02	-8.51534e-02	
187	1.657864e-03	1.000000e+01	-8.48975e-02	-8.50615e-02	
188	1.667864e-03	1.000000e+01	-8.48616e-02	-8.46828e-02	
189	1.677864e-03	1.000000e+01	-8.44714e-02	-8.46369e-02	
190	1.687864e-03	1.000000e+01	-8.44830e-02	-8.43058e-02	
191	1.697864e-03	1.000000e+01	-8.41420e-02	-8.43091e-02	
192	1.707864e-03	1.000000e+01	-8.42038e-02	-8.40284e-02	
193	1.717864e-03	1.000000e+01	-8.39146e-02	-8.40833e-02	
194	1.727864e-03	1.000000e+01	-8.40286e-02	-8.38550e-02	
195	1.737864e-03	1.000000e+01	-8.37926e-02	-8.39630e-02	
196	1.747864e-03	1.000000e+01	-8.39600e-02	-8.37883e-02	
197	1.757864e-03	1.000000e+01	-8.37780e-02	-8.39502e-02	
198	1.767864e-03	1.000000e+01	-8.39992e-02	-8.38293e-02	
199	1.777864e-03	1.000000e+01	-8.38711e-02	-8.40450e-02	
200	1.787864e-03	1.000000e+01	-8.41455e-02	-8.39774e-02	
201	1.797864e-03	1.000000e+01	-8.40704e-02	-8.42459e-02	
202	1.807864e-03	1.000000e+01	-8.43966e-02	-8.42303e-02	
203	1.817864e-03	1.000000e+01	-8.43727e-02	-8.45499e-02	
204	1.827864e-03	1.000000e+01	-8.47486e-02	-8.45840e-02	
205	1.837864e-03	1.000000e+01	-8.47733e-02	-8.49520e-02	
206	1.847864e-03	1.000000e+01	-8.51958e-02	-8.50328e-02	
207	1.857864e-03	1.000000e+01	-8.52658e-02	-8.54459e-02	
208	1.867864e-03	1.000000e+01	-8.57314e-02	-8.55698e-02	
209	1.877864e-03	1.000000e+01	-8.58425e-02	-8.60238e-02	
210	1.887864e-03	1.000000e+01	-8.63467e-02	-8.61864e-02	
211	1.897864e-03	1.000000e+01	-8.64943e-02	-8.66767e-02	
212	1.907864e-03	1.000000e+01	-8.70321e-02	-8.68730e-02	
213	1.917864e-03	1.000000e+01	-8.72109e-02	-8.73942e-02	
214	1.927864e-03	1.000000e+01	-8.77768e-02	-8.76186e-02	
215	1.937864e-03	1.000000e+01	-8.79810e-02	-8.81650e-02	
216	1.947864e-03	1.000000e+01	-8.85690e-02	-8.84115e-02	
217	1.957864e-03	1.000000e+01	-8.87924e-02	-8.89770e-02	
218	1.967864e-03	1.000000e+01	-8.93962e-02	-8.92393e-02	
219	1.977864e-03	1.000000e+01	-8.96324e-02	-8.98173e-02	
220	1.987864e-03	1.000000e+01	-9.02455e-02	-9.00889e-02	
221	1.997864e-03	1.000000e+01	-9.04877e-02	-9.06727e-02	
222	2.007864e-03	1.000000e+01	-9.11033e-02	-9.09468e-02	
223	2.017864e-03	1.000000e+01	-9.13448e-02	-9.15296e-02	
224	2.027864e-03	1.000000e+01	-9.19562e-02	-9.17996e-02	
225	2.037864e-03	1.000000e+01	-9.21902e-02	-9.23747e-02	
226	2.047864e-03	1.000000e+01	-9.27907e-02	-9.26337e-02	
227	2.057864e-03	1.000000e+01	-9.30106e-02	-9.31945e-02	
228	2.067864e-03	1.000000e+01	-9.35937e-02	-9.34361e-02	

Index   time            data            net-_m1-pad1_   net-_m1-pad3_   
--------------------------------------------------------------------------------
229	2.077864e-03	1.000000e+01	-9.37930e-02	-9.39761e-02	
230	2.087864e-03	1.000000e+01	-9.43525e-02	-9.41941e-02	
231	2.097864e-03	1.000000e+01	-9.45251e-02	-9.47072e-02	
232	2.107864e-03	1.000000e+01	-9.50550e-02	-9.48957e-02	
233	2.117864e-03	1.000000e+01	-9.51954e-02	-9.53763e-02	
234	2.127864e-03	1.000000e+01	-9.56903e-02	-9.55299e-02	
235	2.137864e-03	1.000000e+01	-9.57932e-02	-9.59728e-02	
236	2.147864e-03	1.000000e+01	-9.62484e-02	-9.60866e-02	
237	2.157864e-03	1.000000e+01	-9.63092e-02	-9.64872e-02	
238	2.167864e-03	1.000000e+01	-9.67203e-02	-9.65571e-02	
239	2.177864e-03	1.000000e+01	-9.67351e-02	-9.69116e-02	
240	2.187864e-03	1.000000e+01	-9.70987e-02	-9.69340e-02	
241	2.197864e-03	1.000000e+01	-9.70644e-02	-9.72391e-02	
242	2.207864e-03	1.000000e+01	-9.73776e-02	-9.72112e-02	
243	2.217864e-03	1.000000e+01	-9.72929e-02	-9.74660e-02	
244	2.227864e-03	1.000000e+01	-9.76267e-02	-9.74636e-02	
245	2.237864e-03	1.000000e+01	-9.84901e-02	-9.87245e-02	
246	2.247864e-03	1.000000e+01	-1.02100e-01	-1.02096e-01	
247	2.257864e-03	1.000000e+01	-1.05827e-01	-1.06087e-01	
248	2.267864e-03	1.000000e+01	-1.07570e-01	-1.07411e-01	
249	2.277864e-03	1.000000e+01	-1.07520e-01	-1.07688e-01	
250	2.287864e-03	1.000000e+01	-1.07627e-01	-1.07453e-01	
251	2.297864e-03	1.000000e+01	-1.07327e-01	-1.07493e-01	
252	2.307864e-03	1.000000e+01	-1.07375e-01	-1.07200e-01	
253	2.317864e-03	1.000000e+01	-1.07025e-01	-1.07189e-01	
254	2.327864e-03	1.000000e+01	-1.07023e-01	-1.06847e-01	
255	2.337864e-03	1.000000e+01	-1.06624e-01	-1.06786e-01	
256	2.347864e-03	1.000000e+01	-1.06576e-01	-1.06398e-01	
257	2.357864e-03	1.000000e+01	-1.06131e-01	-1.06292e-01	
258	2.367864e-03	1.000000e+01	-1.06040e-01	-1.05861e-01	
259	2.377864e-03	1.000000e+01	-1.05555e-01	-1.05714e-01	
260	2.387864e-03	1.000000e+01	-1.05424e-01	-1.05244e-01	
261	2.397864e-03	1.000000e+01	-1.04903e-01	-1.05061e-01	
262	2.407864e-03	1.000000e+01	-1.04739e-01	-1.04557e-01	
263	2.417864e-03	1.000000e+01	-1.04186e-01	-1.04343e-01	
264	2.427864e-03	1.000000e+01	-1.03994e-01	-1.03812e-01	
265	2.437864e-03	1.000000e+01	-1.03416e-01	-1.03572e-01	
266	2.447864e-03	1.000000e+01	-1.03202e-01	-1.03019e-01	
267	2.457864e-03	1.000000e+01	-1.02604e-01	-1.02760e-01	
268	2.467864e-03	1.000000e+01	-1.02374e-01	-1.02191e-01	
269	2.477864e-03	1.000000e+01	-1.01764e-01	-1.01920e-01	
270	2.487864e-03	1.000000e+01	-1.01525e-01	-1.01341e-01	
271	2.497864e-03	1.000000e+01	-1.00909e-01	-1.01064e-01	
272	2.507864e-03	1.000000e+01	-1.00667e-01	-1.00483e-01	
273	2.517864e-03	1.000000e+01	-1.00052e-01	-1.00207e-01	
274	2.527864e-03	1.000000e+01	-9.98135e-02	-9.96304e-02	
275	2.537864e-03	1.000000e+01	-9.92064e-02	-9.93616e-02	
276	2.547864e-03	1.000000e+01	-9.89788e-02	-9.87961e-02	
277	2.557864e-03	1.000000e+01	-9.83859e-02	-9.85416e-02	
278	2.567864e-03	1.000000e+01	-9.81756e-02	-9.79937e-02	
279	2.577864e-03	1.000000e+01	-9.76034e-02	-9.77597e-02	
280	2.587864e-03	1.000000e+01	-9.74166e-02	-9.72356e-02	
281	2.597864e-03	1.000000e+01	-9.68712e-02	-9.70284e-02	
282	2.607864e-03	1.000000e+01	-9.67138e-02	-9.65339e-02	
283	2.617864e-03	1.000000e+01	-9.62008e-02	-9.63591e-02	
284	2.627864e-03	1.000000e+01	-9.60783e-02	-9.58996e-02	
285	2.637864e-03	1.000000e+01	-9.56029e-02	-9.57624e-02	
286	2.647864e-03	1.000000e+01	-9.55200e-02	-9.53428e-02	

Index   time            data            net-_m1-pad1_   net-_m1-pad3_   
--------------------------------------------------------------------------------
287	2.657864e-03	1.000000e+01	-9.50869e-02	-9.52477e-02	
288	2.667864e-03	1.000000e+01	-9.50478e-02	-9.48722e-02	
289	2.677864e-03	1.000000e+01	-9.46608e-02	-9.48231e-02	
290	2.687864e-03	1.000000e+01	-9.46692e-02	-9.44952e-02	
291	2.697864e-03	1.000000e+01	-9.43314e-02	-9.44953e-02	
292	2.707864e-03	1.000000e+01	-9.43901e-02	-9.42178e-02	
293	2.717864e-03	1.000000e+01	-9.41040e-02	-9.42695e-02	
294	2.727864e-03	1.000000e+01	-9.42148e-02	-9.40444e-02	
295	2.737864e-03	1.000000e+01	-9.39820e-02	-9.41492e-02	
296	2.747864e-03	1.000000e+01	-9.41462e-02	-9.39777e-02	
297	2.757864e-03	1.000000e+01	-9.39674e-02	-9.41364e-02	
298	2.767864e-03	1.000000e+01	-9.41854e-02	-9.40187e-02	
299	2.777864e-03	1.000000e+01	-9.40605e-02	-9.42312e-02	
300	2.787864e-03	1.000000e+01	-9.43317e-02	-9.41668e-02	
301	2.797864e-03	1.000000e+01	-9.42598e-02	-9.44321e-02	
302	2.807864e-03	1.000000e+01	-9.45828e-02	-9.44196e-02	
303	2.817864e-03	1.000000e+01	-9.45621e-02	-9.47360e-02	
304	2.827864e-03	1.000000e+01	-9.49347e-02	-9.47733e-02	
305	2.837864e-03	1.000000e+01	-9.49626e-02	-9.51381e-02	
306	2.847864e-03	1.000000e+01	-9.53820e-02	-9.52221e-02	
307	2.857864e-03	1.000000e+01	-9.54551e-02	-9.56320e-02	
308	2.867864e-03	1.000000e+01	-9.59174e-02	-9.57590e-02	
309	2.877864e-03	1.000000e+01	-9.60318e-02	-9.62099e-02	
310	2.887864e-03	1.000000e+01	-9.65327e-02	-9.63756e-02	
311	2.897864e-03	1.000000e+01	-9.66835e-02	-9.68628e-02	
312	2.907864e-03	1.000000e+01	-9.72181e-02	-9.70621e-02	
313	2.917864e-03	1.000000e+01	-9.74000e-02	-9.75802e-02	
314	2.927864e-03	1.000000e+01	-9.79627e-02	-9.78077e-02	
315	2.937864e-03	1.000000e+01	-9.81701e-02	-9.83510e-02	
316	2.947864e-03	1.000000e+01	-9.87549e-02	-9.86006e-02	
317	2.957864e-03	1.000000e+01	-9.89815e-02	-9.91629e-02	
318	2.967864e-03	1.000000e+01	-9.95821e-02	-9.94284e-02	
319	2.977864e-03	1.000000e+01	-9.98214e-02	-1.00003e-01	
320	2.987864e-03	1.000000e+01	-1.00431e-01	-1.00278e-01	
321	2.997864e-03	1.000000e+01	-1.00677e-01	-1.00858e-01	
322	3.007864e-03	1.000000e+01	-1.01289e-01	-1.01136e-01	
323	3.017864e-03	1.000000e+01	-1.01534e-01	-1.01715e-01	
324	3.027864e-03	1.000000e+01	-1.02142e-01	-1.01989e-01	
325	3.037864e-03	1.000000e+01	-1.02379e-01	-1.02560e-01	
